time	V(clk)	V(d)	V(q)
0.000000000000000e+000	0.000000e+000	0.000000e+000	5.579445e-001
9.999999824516700e-014	1.100000e-002	1.100000e-002	5.582582e-001
1.999999964903340e-013	2.200000e-002	2.200000e-002	5.585610e-001
3.999999929806680e-013	4.400000e-002	4.400000e-002	5.591195e-001
7.999999859613360e-013	8.800000e-002	8.800000e-002	5.600591e-001
1.599999971922672e-012	1.760000e-001	1.760000e-001	5.613703e-001
3.199999943845344e-012	3.520000e-001	3.520000e-001	5.621701e-001
6.399999887690688e-012	7.040000e-001	7.040000e-001	5.572332e-001
9.999999999999999e-012	1.100000e+000	1.100000e+000	5.435412e-001
1.036000001123093e-011	1.100000e+000	1.100000e+000	5.398174e-001
1.108000003369279e-011	1.100000e+000	1.100000e+000	5.331552e-001
1.252000007861652e-011	1.100000e+000	1.100000e+000	5.238751e-001
1.540000016846397e-011	1.100000e+000	1.100000e+000	5.248896e-001
2.116000034815886e-011	1.100000e+000	1.100000e+000	6.022750e-001
3.268000070754866e-011	1.100000e+000	1.100000e+000	8.204940e-001
5.572000142632825e-011	1.100000e+000	1.100000e+000	1.047396e+000
8.772103292647469e-011	1.100000e+000	1.100000e+000	1.101418e+000
1.222893909201425e-010	1.100000e+000	1.100000e+000	1.112297e+000
1.309314804185595e-010	1.100000e+000	1.100000e+000	1.113862e+000
1.482156594153934e-010	1.100000e+000	1.100000e+000	1.031827e+000
1.827840174090612e-010	1.100000e+000	1.100000e+000	6.705241e-001
2.439562065685136e-010	1.100000e+000	1.100000e+000	1.566881e-001
3.066058672776147e-010	1.100000e+000	1.100000e+000	9.868936e-006
3.863308749134975e-010	1.100000e+000	1.100000e+000	4.027913e-004
5.041252204960376e-010	1.100000e+000	1.100000e+000	-1.185905e-005
7.156397655320783e-010	1.100000e+000	1.100000e+000	2.427185e-004
1.043969561498618e-009	1.100000e+000	1.100000e+000	9.376616e-005
1.638817977736676e-009	1.100000e+000	1.100000e+000	1.881852e-004
2.658431630955701e-009	1.100000e+000	1.100000e+000	1.347864e-004
4.432603023456259e-009	1.100000e+000	1.100000e+000	1.627148e-004
7.597197980855901e-009	1.100000e+000	1.100000e+000	1.448272e-004
1.309481790545536e-008	1.100000e+000	1.100000e+000	1.543560e-004
2.409005775465429e-008	1.100000e+000	1.100000e+000	1.468137e-004
4.608053745305214e-008	1.100000e+000	1.100000e+000	1.472551e-004
9.006149684984785e-008	1.100000e+000	1.100000e+000	1.466483e-004
1.486552468498479e-007	1.100000e+000	1.100000e+000	1.476405e-004
2.072489968498478e-007	1.100000e+000	1.100000e+000	1.469844e-004
3.244364968498479e-007	1.100000e+000	1.100000e+000	1.464759e-004
5.002177468498478e-007	1.100000e+000	1.100000e+000	1.463734e-004
5.588114968498479e-007	1.100000e+000	1.100000e+000	1.462949e-004
6.174052468498479e-007	1.100000e+000	1.100000e+000	1.462445e-004
6.759989968498480e-007	1.100000e+000	1.100000e+000	1.462221e-004
7.345927468498481e-007	1.100000e+000	1.100000e+000	1.462277e-004
7.931864968498482e-007	1.100000e+000	1.100000e+000	1.462613e-004
8.517802468498482e-007	1.100000e+000	1.100000e+000	1.463229e-004
9.103739968498482e-007	1.100000e+000	1.100000e+000	1.464126e-004
9.414162500000001e-007	1.100000e+000	1.100000e+000	-3.026588e-003
9.414262500000001e-007	1.100000e+000	1.100000e+000	-1.732213e-003
9.414462500000003e-007	1.100000e+000	1.100000e+000	4.779447e-004
9.414862500000005e-007	1.100000e+000	1.100000e+000	-1.430847e-004
9.415662500000010e-007	1.100000e+000	1.100000e+000	7.366300e-005
9.417262500000021e-007	1.100000e+000	1.100000e+000	-2.406716e-005
9.420462500000041e-007	1.100000e+000	1.100000e+000	2.079247e-005
9.426862500000082e-007	1.100000e+000	1.100000e+000	-1.315571e-006
9.439662500000165e-007	1.100000e+000	1.100000e+000	9.384278e-006
9.618862500001317e-007	1.100000e+000	1.100000e+000	5.365589e-006
9.795299999998684e-007	1.100000e+000	1.100000e+000	-6.562432e-004
9.795399999998684e-007	1.100000e+000	1.100000e+000	-3.720536e-004
9.795599999998686e-007	1.100000e+000	1.100000e+000	1.069281e-004
9.795999999998688e-007	1.100000e+000	1.100000e+000	-3.771139e-005
9.796799999998693e-007	1.100000e+000	1.100000e+000	1.738144e-005
9.798399999998704e-007	1.100000e+000	1.100000e+000	-7.387765e-006
9.801599999998724e-007	1.100000e+000	1.100000e+000	4.208666e-006
9.846399999999012e-007	1.100000e+000	1.100000e+000	-5.926510e-008
9.897599999999341e-007	1.100000e+000	1.100000e+000	-1.742899e-004
9.897699999999342e-007	1.100000e+000	1.100000e+000	-9.808173e-005
9.897899999999343e-007	1.100000e+000	1.100000e+000	2.966009e-005
9.898299999999346e-007	1.100000e+000	1.100000e+000	-1.083530e-005
9.899099999999351e-007	1.100000e+000	1.100000e+000	4.942429e-006
9.910299999999423e-007	1.100000e+000	1.100000e+000	-1.461352e-007
9.923099999999505e-007	1.100000e+000	1.100000e+000	6.326251e-007
9.948699999999670e-007	1.100000e+000	1.100000e+000	2.999081e-005
9.949299999999674e-007	1.100000e+000	1.100000e+000	-5.922680e-006
9.950099999999679e-007	1.100000e+000	1.100000e+000	2.757537e-006
9.974499999999836e-007	1.100000e+000	1.100000e+000	-4.619460e-006
9.993699999999959e-007	1.100000e+000	1.100000e+000	-6.528583e-007
9.996899999999980e-007	1.100000e+000	1.100000e+000	-1.712018e-005
9.997199999999982e-007	1.100000e+000	1.100000e+000	3.522457e-006
9.998499999999990e-007	1.100000e+000	1.100000e+000	-3.134791e-006
1.000000000000000e-006	1.100000e+000	1.100000e+000	2.086136e-007
1.000010000000000e-006	1.100000e+000	1.100000e+000	1.869085e-007
1.000011000000000e-006	9.900000e-001	1.100000e+000	-1.161471e-003
1.000013000000000e-006	7.700000e-001	1.100000e+000	-2.366618e-003
1.000016000000000e-006	4.400000e-001	1.100000e+000	-2.013767e-003
1.000020000000000e-006	0.000000e+000	1.100000e+000	5.568737e-004
1.000020400000000e-006	0.000000e+000	1.100000e+000	1.595657e-003
1.000021200000000e-006	0.000000e+000	1.100000e+000	2.932630e-003
1.000022800000000e-006	0.000000e+000	1.100000e+000	3.673634e-003
1.000026000000000e-006	0.000000e+000	1.100000e+000	2.672047e-003
1.000032400000000e-006	0.000000e+000	1.100000e+000	5.769444e-004
1.000045199999999e-006	0.000000e+000	1.100000e+000	-1.976819e-004
1.000070799999998e-006	0.000000e+000	1.100000e+000	1.116348e-004
1.000099275539427e-006	0.000000e+000	1.100000e+000	4.700735e-005
1.000156226618283e-006	0.000000e+000	1.100000e+000	-8.043311e-005
1.000233842209560e-006	0.000000e+000	1.100000e+000	-4.523015e-005
1.000317745826629e-006	0.000000e+000	1.100000e+000	1.420670e-005
1.000456872570055e-006	0.000000e+000	1.100000e+000	-1.976295e-006
1.000601327021152e-006	0.000000e+000	1.100000e+000	-1.988616e-007
1.000890235923345e-006	0.000000e+000	1.100000e+000	5.813562e-007
1.001408236544635e-006	0.000000e+000	1.100000e+000	-2.943246e-007
1.002245196588188e-006	0.000000e+000	1.100000e+000	3.711563e-007
1.003919116675292e-006	0.000000e+000	1.100000e+000	-8.032268e-008
1.006781703134929e-006	0.000000e+000	1.100000e+000	1.515483e-007
1.012089411198114e-006	0.000000e+000	1.100000e+000	1.007716e-008
1.021952363753517e-006	0.000000e+000	1.100000e+000	8.722902e-008
1.039625350962584e-006	0.000000e+000	1.100000e+000	4.476897e-008
1.133565075380717e-006	0.000000e+000	1.100000e+000	6.162009e-008
1.234011503952146e-006	0.000000e+000	1.100000e+000	6.174955e-008
1.334457932523574e-006	0.000000e+000	1.100000e+000	6.187866e-008
1.434904361095002e-006	0.000000e+000	1.100000e+000	6.200739e-008
1.535350789666431e-006	0.000000e+000	1.100000e+000	6.213576e-008
1.635797218237860e-006	0.000000e+000	1.100000e+000	6.226376e-008
1.736243646809288e-006	0.000000e+000	1.100000e+000	6.239140e-008
1.836690075380716e-006	0.000000e+000	1.100000e+000	6.251867e-008
1.895283825380716e-006	0.000000e+000	1.100000e+000	5.985510e-008
1.941406250000000e-006	0.000000e+000	1.100000e+000	7.725072e-005
1.941416250000000e-006	0.000000e+000	1.100000e+000	4.049399e-005
1.941436249999999e-006	0.000000e+000	1.100000e+000	-1.864252e-005
1.941476249999999e-006	0.000000e+000	1.100000e+000	5.365702e-006
1.941556249999998e-006	0.000000e+000	1.100000e+000	-2.181456e-006
1.941716249999995e-006	0.000000e+000	1.100000e+000	1.028919e-006
1.942036249999991e-006	0.000000e+000	1.100000e+000	-4.108739e-007
1.942676249999981e-006	0.000000e+000	1.100000e+000	2.721252e-007
1.943956249999962e-006	0.000000e+000	1.100000e+000	-6.011942e-008
1.946516249999924e-006	0.000000e+000	1.100000e+000	1.037356e-007
1.961876249999698e-006	0.000000e+000	1.100000e+000	6.071028e-008
1.979520000000302e-006	0.000000e+000	1.100000e+000	1.559617e-005
1.979530000000302e-006	0.000000e+000	1.100000e+000	1.006593e-005
1.979550000000302e-006	0.000000e+000	1.100000e+000	-7.460519e-007
1.979590000000301e-006	0.000000e+000	1.100000e+000	-3.182261e-008
1.979670000000300e-006	0.000000e+000	1.100000e+000	1.819590e-007
1.979830000000297e-006	0.000000e+000	1.100000e+000	-3.187536e-008
1.980150000000293e-006	0.000000e+000	1.100000e+000	9.513072e-008
1.980790000000283e-006	0.000000e+000	1.100000e+000	2.692226e-008
1.984630000000227e-006	0.000000e+000	1.100000e+000	4.427056e-008
1.989750000000151e-006	0.000000e+000	1.100000e+000	-3.982208e-006
1.989760000000151e-006	0.000000e+000	1.100000e+000	-1.784962e-006
1.989780000000151e-006	0.000000e+000	1.100000e+000	1.361446e-006
1.989820000000150e-006	0.000000e+000	1.100000e+000	-5.584755e-007
1.989900000000149e-006	0.000000e+000	1.100000e+000	3.567890e-007
1.990060000000147e-006	0.000000e+000	1.100000e+000	-9.610600e-008
1.990380000000142e-006	0.000000e+000	1.100000e+000	1.259584e-007
1.992300000000114e-006	0.000000e+000	1.100000e+000	7.051252e-008
1.994860000000076e-006	0.000000e+000	1.100000e+000	2.271422e-006
1.994920000000075e-006	0.000000e+000	1.100000e+000	-4.550623e-007
1.995000000000074e-006	0.000000e+000	1.100000e+000	2.963476e-007
1.995160000000071e-006	0.000000e+000	1.100000e+000	-6.482878e-008
1.996120000000057e-006	0.000000e+000	1.100000e+000	2.375843e-008
1.997400000000038e-006	0.000000e+000	1.100000e+000	-7.948850e-007
1.997520000000037e-006	0.000000e+000	1.100000e+000	2.634485e-007
1.997680000000034e-006	0.000000e+000	1.100000e+000	-4.858278e-008
1.998720000000019e-006	0.000000e+000	1.100000e+000	2.480968e-007
1.999360000000009e-006	0.000000e+000	1.100000e+000	-3.829352e-008
1.999680000000005e-006	0.000000e+000	1.100000e+000	-2.236075e-006
1.999710000000004e-006	0.000000e+000	1.100000e+000	5.407680e-007
1.999830000000002e-006	0.000000e+000	1.100000e+000	-9.644498e-007
1.999860000000002e-006	0.000000e+000	1.100000e+000	2.863217e-007
1.999960000000001e-006	0.000000e+000	1.100000e+000	3.735955e-007
1.999990000000000e-006	0.000000e+000	1.100000e+000	8.833332e-008
2.000000000000000e-006	0.000000e+000	1.100000e+000	5.372772e-007
2.000001000000000e-006	1.100000e-001	1.100000e+000	1.666951e-003
2.000003000000000e-006	3.300000e-001	1.100000e+000	3.494208e-003
2.000006000000000e-006	6.600000e-001	1.100000e+000	2.831287e-003
2.000010000000000e-006	1.100000e+000	1.100000e+000	-1.949499e-003
2.000010400000000e-006	1.100000e+000	1.100000e+000	-3.714066e-003
2.000011200000000e-006	1.100000e+000	1.100000e+000	-6.148977e-003
2.000012800000000e-006	1.100000e+000	1.100000e+000	-8.217410e-003
2.000016000000000e-006	1.100000e+000	1.100000e+000	-9.114956e-003
2.000022400000000e-006	1.100000e+000	1.100000e+000	-9.863570e-003
2.000035200000001e-006	1.100000e+000	1.100000e+000	1.370670e-002
2.000060800000001e-006	1.100000e+000	1.100000e+000	2.401484e-001
2.000112000000003e-006	1.100000e+000	1.100000e+000	7.986780e-001
2.000184941835049e-006	1.100000e+000	1.100000e+000	1.095360e+000
2.000260132612612e-006	1.100000e+000	1.100000e+000	1.099682e+000
2.000389236751850e-006	1.100000e+000	1.100000e+000	1.098994e+000
2.000530086625255e-006	1.100000e+000	1.100000e+000	1.099766e+000
2.000788764205040e-006	1.100000e+000	1.100000e+000	1.099358e+000
2.001177049051193e-006	1.100000e+000	1.100000e+000	1.099657e+000
2.001808948809661e-006	1.100000e+000	1.100000e+000	1.099521e+000
2.002922867111221e-006	1.100000e+000	1.100000e+000	1.099638e+000
2.004726383318357e-006	1.100000e+000	1.100000e+000	1.099597e+000
2.007903627557445e-006	1.100000e+000	1.100000e+000	1.099644e+000
2.013286116229529e-006	1.100000e+000	1.100000e+000	1.099628e+000
2.022531949491718e-006	1.100000e+000	1.100000e+000	1.099640e+000
2.038522709703711e-006	1.100000e+000	1.100000e+000	1.099635e+000
2.065925735166535e-006	1.100000e+000	1.100000e+000	1.099639e+000
2.171895725877558e-006	1.100000e+000	1.100000e+000	1.099634e+000
2.272342154448987e-006	1.100000e+000	1.100000e+000	1.099634e+000
2.372788583020416e-006	1.100000e+000	1.100000e+000	1.099633e+000
2.473235011591844e-006	1.100000e+000	1.100000e+000	1.099633e+000
2.573681440163273e-006	1.100000e+000	1.100000e+000	1.099634e+000
2.674127868734702e-006	1.100000e+000	1.100000e+000	1.099634e+000
2.774574297306131e-006	1.100000e+000	1.100000e+000	1.099634e+000
2.875020725877560e-006	1.100000e+000	1.100000e+000	1.099635e+000
2.933614475877560e-006	1.100000e+000	1.100000e+000	1.099643e+000
2.941416250000000e-006	1.100000e+000	1.100000e+000	1.099639e+000
2.957019798244880e-006	1.100000e+000	1.100000e+000	1.099638e+000
2.968802903510240e-006	1.100000e+000	1.100000e+000	1.099639e+000
2.976443789469280e-006	1.100000e+000	1.100000e+000	1.099648e+000
2.984728228081920e-006	1.100000e+000	1.100000e+000	1.093583e+000
2.984738228081920e-006	1.100000e+000	1.100000e+000	1.096159e+000
2.984758228081919e-006	1.100000e+000	1.100000e+000	1.100668e+000
2.984798228081916e-006	1.100000e+000	1.100000e+000	1.099654e+000
2.984878228081912e-006	1.100000e+000	1.100000e+000	1.100119e+000
2.985038228081903e-006	1.100000e+000	1.100000e+000	1.099921e+000
2.985358228081884e-006	1.100000e+000	1.100000e+000	1.100016e+000
2.985998228081848e-006	1.100000e+000	1.100000e+000	1.099971e+000
2.987278228081775e-006	1.100000e+000	1.100000e+000	1.099994e+000
2.989838228081629e-006	1.100000e+000	1.100000e+000	1.099983e+000
2.994958228081336e-006	1.100000e+000	1.100000e+000	1.098534e+000
2.994968228081336e-006	1.100000e+000	1.100000e+000	1.099141e+000
2.994988228081334e-006	1.100000e+000	1.100000e+000	1.100193e+000
2.995028228081332e-006	1.100000e+000	1.100000e+000	1.099924e+000
2.995108228081328e-006	1.100000e+000	1.100000e+000	1.100030e+000
2.995268228081318e-006	1.100000e+000	1.100000e+000	1.099985e+000
2.995588228081300e-006	1.100000e+000	1.100000e+000	1.100006e+000
2.996228228081264e-006	1.100000e+000	1.100000e+000	1.099996e+000
2.997508228081191e-006	1.100000e+000	1.100000e+000	1.099674e+000
2.997518228081190e-006	1.100000e+000	1.100000e+000	1.099808e+000
2.997538228081189e-006	1.100000e+000	1.100000e+000	1.100042e+000
2.997578228081187e-006	1.100000e+000	1.100000e+000	1.099984e+000
2.997658228081182e-006	1.100000e+000	1.100000e+000	1.100007e+000
2.997818228081173e-006	1.100000e+000	1.100000e+000	1.099997e+000
2.998138228081155e-006	1.100000e+000	1.100000e+000	1.100001e+000
2.998778228081118e-006	1.100000e+000	1.100000e+000	1.100065e+000
2.998808228081116e-006	1.100000e+000	1.100000e+000	1.099989e+000
2.998848228081114e-006	1.100000e+000	1.100000e+000	1.100003e+000
2.998928228081109e-006	1.100000e+000	1.100000e+000	1.099998e+000
2.999088228081100e-006	1.100000e+000	1.100000e+000	1.100001e+000
2.999408228081082e-006	1.100000e+000	1.100000e+000	1.100015e+000
2.999438228081080e-006	1.100000e+000	1.100000e+000	1.099997e+000
2.999478228081078e-006	1.100000e+000	1.100000e+000	1.100001e+000
2.999718228081064e-006	1.100000e+000	1.100000e+000	1.099996e+000
2.999748228081063e-006	1.100000e+000	1.100000e+000	1.100001e+000
2.999878228081055e-006	1.100000e+000	1.100000e+000	1.099999e+000
2.999938228081052e-006	1.100000e+000	1.100000e+000	1.100000e+000
2.999948228081051e-006	1.100000e+000	1.100000e+000	1.100000e+000
2.999968228081050e-006	1.100000e+000	1.100000e+000	1.100000e+000
2.999973543837907e-006	1.100000e+000	1.100000e+000	1.100000e+000
3.000000000000001e-006	1.100000e+000	1.100000e+000	1.100000e+000
3.000010000000000e-006	1.100000e+000	1.100000e+000	1.099999e+000
3.000011000000000e-006	9.900000e-001	1.100000e+000	1.097895e+000
3.000013000000000e-006	7.700000e-001	1.100000e+000	1.095917e+000
3.000016000000000e-006	4.400000e-001	1.100000e+000	1.096477e+000
3.000020000000000e-006	0.000000e+000	1.100000e+000	1.099164e+000
3.000020400000000e-006	0.000000e+000	1.100000e+000	1.100304e+000
3.000021200000000e-006	0.000000e+000	1.100000e+000	1.101845e+000
3.000022799999999e-006	0.000000e+000	1.100000e+000	1.102648e+000
3.000025999999999e-006	0.000000e+000	1.100000e+000	1.101960e+000
3.000032399999999e-006	0.000000e+000	1.100000e+000	1.100872e+000
3.000045199999998e-006	0.000000e+000	1.100000e+000	1.100388e+000
3.000070799999996e-006	0.000000e+000	1.100000e+000	1.100149e+000
3.000121999999992e-006	0.000000e+000	1.100000e+000	1.100013e+000
3.000224399999984e-006	0.000000e+000	1.100000e+000	1.100001e+000
3.000429199999968e-006	0.000000e+000	1.100000e+000	1.099999e+000
3.000838799999936e-006	0.000000e+000	1.100000e+000	1.100000e+000
3.941406250000000e-006	0.000000e+000	1.100000e+000	1.100000e+000
3.967566899983588e-006	0.000000e+000	1.100000e+000	1.100025e+000
3.967596899983587e-006	0.000000e+000	1.100000e+000	1.099997e+000
3.967636899983587e-006	0.000000e+000	1.100000e+000	1.100001e+000
3.988046899983286e-006	0.000000e+000	1.100000e+000	1.099998e+000
3.988066899983285e-006	0.000000e+000	1.100000e+000	1.100000e+000
3.999994631268811e-006	0.000000e+000	1.100000e+000	1.100000e+000
4.000000000000000e-006	0.000000e+000	1.100000e+000	1.100000e+000
4.000000536873119e-006	5.905604e-002	1.100000e+000	1.101377e+000
4.000001610619357e-006	1.771681e-001	1.100000e+000	1.102893e+000
4.000003758111832e-006	4.133923e-001	1.100000e+000	1.103454e+000
4.000005705015048e-006	6.275517e-001	1.100000e+000	1.103345e+000
4.000009598821480e-006	1.055870e+000	1.100000e+000	1.103776e+000
4.000010000000000e-006	1.100000e+000	1.100000e+000	1.103812e+000
4.000010778761286e-006	1.100000e+000	1.100000e+000	1.101365e+000
4.000012336283858e-006	1.100000e+000	1.100000e+000	1.098642e+000
4.000015451329004e-006	1.100000e+000	1.100000e+000	1.097425e+000
4.000021681419295e-006	1.100000e+000	1.100000e+000	1.098276e+000
4.000034141599876e-006	1.100000e+000	1.100000e+000	1.099532e+000
4.000059061961039e-006	1.100000e+000	1.100000e+000	1.099972e+000
4.000108902683365e-006	1.100000e+000	1.100000e+000	1.100003e+000
4.000208584128018e-006	1.100000e+000	1.100000e+000	1.100000e+000
4.000407947017323e-006	1.100000e+000	1.100000e+000	1.100000e+000
4.001604124353151e-006	1.100000e+000	1.100000e+000	1.100000e+000
4.003199027467589e-006	1.100000e+000	1.100000e+000	1.100000e+000
4.006388833696465e-006	1.100000e+000	1.100000e+000	1.100000e+000
4.012768446154217e-006	1.100000e+000	1.100000e+000	1.100000e+000
4.025527671069721e-006	1.100000e+000	1.100000e+000	1.100000e+000
4.051046120900729e-006	1.100000e+000	1.100000e+000	1.100000e+000
4.102083020562745e-006	1.100000e+000	1.100000e+000	1.100000e+000
4.219270520562745e-006	1.100000e+000	1.100000e+000	1.100000e+000
4.322434196196639e-006	1.100000e+000	1.100000e+000	1.100000e+000
4.425597871830532e-006	1.100000e+000	1.100000e+000	1.100000e+000
4.528761547464426e-006	1.100000e+000	1.100000e+000	1.100000e+000
4.631925223098319e-006	1.100000e+000	1.100000e+000	1.100000e+000
4.735088898732213e-006	1.100000e+000	1.100000e+000	1.100000e+000
4.838252574366106e-006	1.100000e+000	1.100000e+000	1.100000e+000
4.941416249999999e-006	1.100000e+000	1.100000e+000	1.100000e+000
4.961968541125495e-006	1.100000e+000	1.100000e+000	1.100007e+000
4.961998541125492e-006	1.100000e+000	1.100000e+000	1.099997e+000
4.962118541125480e-006	1.100000e+000	1.100000e+000	1.100000e+000
4.982448541123458e-006	1.100000e+000	1.100000e+000	1.099998e+000
4.982588541123444e-006	1.100000e+000	1.100000e+000	1.100000e+000
5.000000000000000e-006	1.100000e+000	1.100000e+000	1.100000e+000
5.000010000000000e-006	1.100000e+000	1.100000e+000	1.100000e+000
