time	V(clk)	V(d)	V(n2)	V(n4)
0.000000000000000e+000	0.000000e+000	0.000000e+000	1.099999e+000	1.100000e+000
1.953124992195698e-015	2.148437e-004	2.148437e-004	1.100024e+000	1.100016e+000
3.906249984391395e-015	4.296875e-004	4.296875e-004	1.100045e+000	1.100029e+000
7.812499968782791e-015	8.593750e-004	8.593750e-004	1.100081e+000	1.100050e+000
1.562499993756558e-014	1.718750e-003	1.718750e-003	1.100147e+000	1.100091e+000
3.124999987513116e-014	3.437500e-003	3.437500e-003	1.100278e+000	1.100171e+000
6.249999975026233e-014	6.875000e-003	6.875000e-003	1.100540e+000	1.100328e+000
1.249999995005247e-013	1.375000e-002	1.375000e-002	1.101060e+000	1.100632e+000
2.499999990010493e-013	2.750000e-002	2.750000e-002	1.102092e+000	1.101206e+000
4.999999980020986e-013	5.500000e-002	5.500000e-002	1.104120e+000	1.102231e+000
9.999999960041972e-013	1.100000e-001	1.100000e-001	1.108049e+000	1.103890e+000
1.999999992008394e-012	2.200000e-001	2.200000e-001	1.115461e+000	1.106184e+000
3.999999984016789e-012	4.400000e-001	4.400000e-001	1.128387e+000	1.109013e+000
6.000000015983211e-012	6.600000e-001	6.600000e-001	1.134105e+000	1.111230e+000
9.999999999999999e-012	1.100000e+000	1.100000e+000	1.129049e+000	1.116043e+000
1.039999999840168e-011	1.100000e+000	1.100000e+000	1.121693e+000	1.114231e+000
1.119999999520504e-011	1.100000e+000	1.100000e+000	1.105611e+000	1.110798e+000
1.279999998881175e-011	1.100000e+000	1.100000e+000	1.062066e+000	1.104862e+000
1.599999997602518e-011	1.100000e+000	1.100000e+000	9.554050e-001	1.097279e+000
1.991407647790446e-011	1.100000e+000	1.100000e+000	8.363389e-001	1.094423e+000
2.583611192785710e-011	1.100000e+000	1.100000e+000	7.019674e-001	1.095414e+000
3.349546552284158e-011	1.100000e+000	1.100000e+000	5.799256e-001	1.098724e+000
4.881417271281054e-011	1.100000e+000	1.100000e+000	3.958575e-001	1.112174e+000
6.937384384479315e-011	1.100000e+000	1.100000e+000	2.035463e-001	1.150891e+000
9.866651415324314e-011	1.100000e+000	1.100000e+000	5.385048e-002	1.141228e+000
1.330186577684067e-010	1.100000e+000	1.100000e+000	5.731442e-003	8.223646e-001
1.714477545480696e-010	1.100000e+000	1.100000e+000	8.358945e-004	3.287187e-001
2.293155759947992e-010	1.100000e+000	1.100000e+000	2.943291e-006	1.045638e-002
2.875708440266538e-010	1.100000e+000	1.100000e+000	5.651381e-005	-1.600896e-003
3.579983658685624e-010	1.100000e+000	1.100000e+000	-6.205109e-005	3.178417e-003
4.726522515227940e-010	1.100000e+000	1.100000e+000	2.133035e-005	-3.254742e-004
6.232484917334959e-010	1.100000e+000	1.100000e+000	-1.223540e-005	7.704443e-004
8.185609917334959e-010	1.100000e+000	1.100000e+000	2.073648e-006	2.019824e-004
1.013873491733496e-009	1.100000e+000	1.100000e+000	-9.704090e-007	2.680533e-004
1.209185991733496e-009	1.100000e+000	1.100000e+000	1.813198e-006	1.378134e-004
1.404498491733496e-009	1.100000e+000	1.100000e+000	-6.809714e-007	1.905560e-004
1.599810991733496e-009	1.100000e+000	1.100000e+000	1.585882e-006	9.093061e-005
1.795123491733496e-009	1.100000e+000	1.100000e+000	-4.364119e-007	1.380227e-004
1.990435991733496e-009	1.100000e+000	1.100000e+000	1.391265e-006	6.014761e-005
2.185748491733496e-009	1.100000e+000	1.100000e+000	-2.352317e-007	1.013691e-004
2.381060991733496e-009	1.100000e+000	1.100000e+000	1.227410e-006	3.958214e-005
2.576373491733495e-009	1.100000e+000	1.100000e+000	-7.262861e-008	7.527159e-005
2.771685991733495e-009	1.100000e+000	1.100000e+000	1.090593e-006	2.571556e-005
2.966998491733495e-009	1.100000e+000	1.100000e+000	6.720074e-008	5.640509e-005
3.162310991733495e-009	1.100000e+000	1.100000e+000	9.940268e-007	1.633272e-005
3.357623491733495e-009	1.100000e+000	1.100000e+000	1.858134e-007	4.259369e-005
3.552935991733494e-009	1.100000e+000	1.100000e+000	9.081850e-007	9.990996e-006
3.748248491733494e-009	1.100000e+000	1.100000e+000	2.592860e-007	3.237976e-005
3.943560991733494e-009	1.100000e+000	1.100000e+000	8.240459e-007	5.736365e-006
4.138873491733494e-009	1.100000e+000	1.100000e+000	3.157184e-007	2.476916e-005
4.334185991733494e-009	1.100000e+000	1.100000e+000	7.540220e-007	2.907822e-006
4.529498491733493e-009	1.100000e+000	1.100000e+000	3.565074e-007	1.904357e-005
4.724810991733493e-009	1.100000e+000	1.100000e+000	-4.456651e-006	1.788944e-004
4.814687500000000e-009	1.100000e+000	1.100000e+000	3.892794e-005	-8.472001e-004
4.830246983466986e-009	1.100000e+000	1.100000e+000	2.743232e-005	-6.480816e-004
4.861365950400957e-009	1.100000e+000	1.100000e+000	-5.503980e-006	9.245130e-005
4.923603884268900e-009	1.100000e+000	1.100000e+000	-2.988611e-005	5.688118e-005
4.933603884268900e-009	1.100000e+000	1.100000e+000	-1.564995e-005	5.638169e-005
4.953603884268900e-009	1.100000e+000	1.100000e+000	5.739781e-007	-4.690315e-006
4.970000000000001e-009	1.100000e+000	1.100000e+000	2.608699e-005	1.987791e-005
4.977207768537797e-009	1.100000e+000	1.100000e+000	2.816039e-005	2.259271e-005
4.991623305613390e-009	1.100000e+000	1.100000e+000	1.044388e-005	3.963750e-006
5.000000000000000e-009	1.100000e+000	1.100000e+000	8.451702e-006	5.342170e-006
5.010000000000000e-009	1.100000e+000	1.100000e+000	7.172133e-005	1.828086e-005
5.011000000000000e-009	9.900000e-001	1.100000e+000	-9.973972e-003	-3.251386e-003
5.013000000000000e-009	7.700000e-001	1.100000e+000	-2.936759e-002	-7.936250e-003
5.016000000000000e-009	4.400000e-001	1.100000e+000	-5.242116e-002	-1.084403e-002
5.020000000000000e-009	0.000000e+000	1.100000e+000	-7.226791e-002	-1.057681e-002
5.020400000000001e-009	0.000000e+000	1.100000e+000	-6.827848e-002	-8.086528e-003
5.021200000000001e-009	0.000000e+000	1.100000e+000	-5.987648e-002	-3.935370e-003
5.022800000000001e-009	0.000000e+000	1.100000e+000	-4.243678e-002	1.430049e-003
5.026000000000000e-009	0.000000e+000	1.100000e+000	-8.176208e-003	5.818072e-003
5.032399999999999e-009	0.000000e+000	1.100000e+000	5.653089e-002	6.409033e-003
5.045199999999998e-009	0.000000e+000	1.100000e+000	1.784523e-001	3.816079e-003
5.070799999999995e-009	0.000000e+000	1.100000e+000	4.091971e-001	-2.038170e-004
5.121999999999990e-009	0.000000e+000	1.100000e+000	7.730536e-001	-3.475223e-003
5.194585367532434e-009	0.000000e+000	1.100000e+000	1.035759e+000	-3.492140e-004
5.260592590213895e-009	0.000000e+000	1.100000e+000	1.096078e+000	-8.322514e-005
5.311944231830640e-009	0.000000e+000	1.100000e+000	1.098446e+000	-2.352688e-004
5.367589806518491e-009	0.000000e+000	1.100000e+000	1.099582e+000	1.005209e-004
5.421697155154548e-009	0.000000e+000	1.100000e+000	1.099925e+000	-1.218194e-004
5.485584279470210e-009	0.000000e+000	1.100000e+000	1.100036e+000	1.246764e-004
5.613358528101532e-009	0.000000e+000	1.100000e+000	1.099994e+000	-1.861534e-005
5.764955459480320e-009	0.000000e+000	1.100000e+000	1.100000e+000	1.600595e-005
5.960267959480320e-009	0.000000e+000	1.100000e+000	1.099997e+000	-2.354296e-006
6.155580459480320e-009	0.000000e+000	1.100000e+000	1.099999e+000	2.917790e-006
6.350892959480319e-009	0.000000e+000	1.100000e+000	1.099998e+000	-1.720473e-006
6.546205459480319e-009	0.000000e+000	1.100000e+000	1.099999e+000	2.489251e-006
6.741517959480319e-009	0.000000e+000	1.100000e+000	1.099998e+000	-1.208857e-006
6.936830459480319e-009	0.000000e+000	1.100000e+000	1.099999e+000	2.133544e-006
7.132142959480319e-009	0.000000e+000	1.100000e+000	1.099999e+000	-8.022471e-007
7.327455459480318e-009	0.000000e+000	1.100000e+000	1.099999e+000	1.834938e-006
7.522767959480319e-009	0.000000e+000	1.100000e+000	1.099999e+000	-4.823669e-007
7.718080459480319e-009	0.000000e+000	1.100000e+000	1.099999e+000	1.582463e-006
7.913392959480319e-009	0.000000e+000	1.100000e+000	1.099999e+000	-2.336747e-007
8.108705459480318e-009	0.000000e+000	1.100000e+000	1.099999e+000	1.367822e-006
8.304017959480318e-009	0.000000e+000	1.100000e+000	1.099999e+000	-4.263711e-008
8.499330459480318e-009	0.000000e+000	1.100000e+000	1.099999e+000	1.184701e-006
8.694642959480318e-009	0.000000e+000	1.100000e+000	1.099999e+000	1.020380e-007
8.889955459480317e-009	0.000000e+000	1.100000e+000	1.099999e+000	1.027947e-006
9.085267959480317e-009	0.000000e+000	1.100000e+000	1.100000e+000	2.095476e-007
9.280580459480317e-009	0.000000e+000	1.100000e+000	1.099999e+000	8.933421e-007
9.475892959480317e-009	0.000000e+000	1.100000e+000	1.100000e+000	2.876332e-007
9.671205459480317e-009	0.000000e+000	1.100000e+000	1.100003e+000	4.745734e-006
9.804687500000000e-009	0.000000e+000	1.100000e+000	1.099931e+000	-1.646094e-004
9.814687500000000e-009	0.000000e+000	1.100000e+000	1.099958e+000	-9.002417e-005
9.834687500000000e-009	0.000000e+000	1.100000e+000	1.100013e+000	4.573101e-005
9.874687499999999e-009	0.000000e+000	1.100000e+000	1.099996e+000	-1.064328e-005
9.930784515351849e-009	0.000000e+000	1.100000e+000	1.100000e+000	-7.521662e-005
9.940784515351849e-009	0.000000e+000	1.100000e+000	1.100000e+000	-5.108273e-005
9.960784515351848e-009	0.000000e+000	1.100000e+000	1.100005e+000	-1.751792e-005
9.970784515351848e-009	0.000000e+000	1.100000e+000	1.100001e+000	-5.832117e-006
9.980000000000001e-009	0.000000e+000	1.100000e+000	1.100052e+000	-2.794125e-005
9.981569030703695e-009	0.000000e+000	1.100000e+000	1.100046e+000	-2.768315e-005
9.984707092111083e-009	0.000000e+000	1.100000e+000	1.100010e+000	-5.361790e-006
9.990983214925860e-009	0.000000e+000	1.100000e+000	1.099999e+000	1.421321e-007
1.000000000000000e-008	0.000000e+000	1.100000e+000	1.100013e+000	2.916539e-006
1.000090167850741e-008	9.918463e-002	1.100000e+000	1.105510e+000	4.307499e-003
1.000270503552224e-008	2.975539e-001	1.100000e+000	1.114728e+000	9.487780e-003
1.000631174955190e-008	6.942924e-001	1.100000e+000	1.127275e+000	8.024910e-003
1.001000000000000e-008	1.100000e+000	1.100000e+000	1.135203e+000	-5.783501e-003
1.001036882504481e-008	1.100000e+000	1.100000e+000	1.133834e+000	-1.102501e-002
1.001110647513443e-008	1.100000e+000	1.100000e+000	1.131169e+000	-2.031376e-002
1.001258177531367e-008	1.100000e+000	1.100000e+000	1.126657e+000	-3.470750e-002
1.001553237567215e-008	1.100000e+000	1.100000e+000	1.120166e+000	-5.447346e-002
1.002143357638912e-008	1.100000e+000	1.100000e+000	1.112065e+000	-8.344945e-002
1.003127294776738e-008	1.100000e+000	1.100000e+000	1.104944e+000	-7.691192e-002
1.005095169052391e-008	1.100000e+000	1.100000e+000	1.099578e+000	1.708592e-001
1.008332853454251e-008	1.100000e+000	1.100000e+000	1.097850e+000	7.381982e-001
1.011683341347434e-008	1.100000e+000	1.100000e+000	1.098384e+000	1.057017e+000
1.014814909004658e-008	1.100000e+000	1.100000e+000	1.099308e+000	1.103806e+000
1.018843653279864e-008	1.100000e+000	1.100000e+000	1.099953e+000	1.099206e+000
1.023330151577767e-008	1.100000e+000	1.100000e+000	1.100010e+000	1.100554e+000
1.032303148173572e-008	1.100000e+000	1.100000e+000	1.099993e+000	1.099831e+000
1.049416718721449e-008	1.100000e+000	1.100000e+000	1.100000e+000	1.100021e+000
1.068947968721449e-008	1.100000e+000	1.100000e+000	1.099999e+000	1.099992e+000
1.088479218721449e-008	1.100000e+000	1.100000e+000	1.099999e+000	1.100003e+000
1.108010468721449e-008	1.100000e+000	1.100000e+000	1.099999e+000	1.099994e+000
1.127541718721449e-008	1.100000e+000	1.100000e+000	1.099999e+000	1.100002e+000
1.147072968721449e-008	1.100000e+000	1.100000e+000	1.099999e+000	1.099995e+000
1.166604218721449e-008	1.100000e+000	1.100000e+000	1.099999e+000	1.100002e+000
1.186135468721449e-008	1.100000e+000	1.100000e+000	1.099999e+000	1.099996e+000
1.205666718721449e-008	1.100000e+000	1.100000e+000	1.099999e+000	1.100001e+000
1.225197968721449e-008	1.100000e+000	1.100000e+000	1.099999e+000	1.099997e+000
1.244729218721449e-008	1.100000e+000	1.100000e+000	1.099999e+000	1.100001e+000
1.264260468721449e-008	1.100000e+000	1.100000e+000	1.099999e+000	1.099997e+000
1.283791718721449e-008	1.100000e+000	1.100000e+000	1.099999e+000	1.100001e+000
1.303322968721449e-008	1.100000e+000	1.100000e+000	1.099999e+000	1.099998e+000
1.322854218721449e-008	1.100000e+000	1.100000e+000	1.099999e+000	1.100001e+000
1.342385468721449e-008	1.100000e+000	1.100000e+000	1.099999e+000	1.099998e+000
1.361916718721449e-008	1.100000e+000	1.100000e+000	1.099999e+000	1.100001e+000
1.381447968721449e-008	1.100000e+000	1.100000e+000	1.099999e+000	1.099998e+000
1.400979218721449e-008	1.100000e+000	1.100000e+000	1.099999e+000	1.100001e+000
1.420510468721449e-008	1.100000e+000	1.100000e+000	1.099999e+000	1.099999e+000
1.440041718721449e-008	1.100000e+000	1.100000e+000	1.099999e+000	1.100001e+000
1.459572968721449e-008	1.100000e+000	1.100000e+000	1.099999e+000	1.099999e+000
1.479104218721449e-008	1.100000e+000	1.100000e+000	1.100000e+000	1.099951e+000
1.481468750000000e-008	1.100000e+000	1.100000e+000	1.100000e+000	1.099965e+000
1.486197812557103e-008	1.100000e+000	1.100000e+000	1.099999e+000	1.100004e+000
1.491541874885794e-008	1.100000e+000	1.100000e+000	1.099992e+000	1.099967e+000
1.492541874885794e-008	1.100000e+000	1.100000e+000	1.099995e+000	1.099984e+000
1.494541874885795e-008	1.100000e+000	1.100000e+000	1.100000e+000	1.100008e+000
1.496999999999999e-008	1.100000e+000	1.100000e+000	1.100000e+000	1.100018e+000
1.497999999999999e-008	1.100000e+000	1.100000e+000	1.100001e+000	1.100010e+000
1.499000000000000e-008	1.100000e+000	1.100000e+000	1.099999e+000	1.099997e+000
1.500000000000000e-008	1.100000e+000	1.100000e+000	1.100000e+000	1.100003e+000
1.501000000000000e-008	1.100000e+000	1.100000e+000	1.099980e+000	1.099978e+000
1.501100000000000e-008	9.900000e-001	1.100000e+000	1.095380e+000	1.096251e+000
1.501300000000000e-008	7.700000e-001	1.100000e+000	1.087480e+000	1.091748e+000
1.501600000000000e-008	4.400000e-001	1.100000e+000	1.077631e+000	1.091588e+000
1.502000000000000e-008	0.000000e+000	1.100000e+000	1.065362e+000	1.097727e+000
1.502040000000000e-008	0.000000e+000	1.100000e+000	1.067257e+000	1.100381e+000
1.502120000000000e-008	0.000000e+000	1.100000e+000	1.070647e+000	1.104706e+000
1.502280000000000e-008	0.000000e+000	1.100000e+000	1.076023e+000	1.109323e+000
1.502600000000001e-008	0.000000e+000	1.100000e+000	1.083467e+000	1.110902e+000
1.503240000000001e-008	0.000000e+000	1.100000e+000	1.091857e+000	1.107682e+000
1.504520000000002e-008	0.000000e+000	1.100000e+000	1.098379e+000	1.102818e+000
1.507080000000004e-008	0.000000e+000	1.100000e+000	1.100747e+000	1.100360e+000
1.512200000000007e-008	0.000000e+000	1.100000e+000	1.100354e+000	1.099991e+000
1.522440000000015e-008	0.000000e+000	1.100000e+000	1.099991e+000	1.100001e+000
1.541971250000015e-008	0.000000e+000	1.100000e+000	1.100000e+000	1.099999e+000
1.561502500000015e-008	0.000000e+000	1.100000e+000	1.099999e+000	1.100000e+000
1.620096250000016e-008	0.000000e+000	1.100000e+000	1.099999e+000	1.100000e+000
1.678690000000016e-008	0.000000e+000	1.100000e+000	1.099999e+000	1.100000e+000
1.737283750000016e-008	0.000000e+000	1.100000e+000	1.100000e+000	1.100000e+000
1.795877500000017e-008	0.000000e+000	1.100000e+000	1.100000e+000	1.099999e+000
1.854471250000017e-008	0.000000e+000	1.100000e+000	1.100000e+000	1.099999e+000
1.913065000000018e-008	0.000000e+000	1.100000e+000	1.100000e+000	1.099999e+000
1.971658750000018e-008	0.000000e+000	1.100000e+000	1.099999e+000	1.099999e+000
1.982380000000037e-008	0.000000e+000	1.100000e+000	1.100000e+000	1.100002e+000
1.996000000000000e-008	0.000000e+000	1.100000e+000	1.100000e+000	1.100000e+000
1.997290000000291e-008	0.000000e+000	1.100000e+000	1.100000e+000	1.100000e+000
1.997679999997670e-008	0.000000e+000	1.100000e+000	1.100000e+000	1.100000e+000
1.998960000006990e-008	0.000000e+000	1.100000e+000	1.100000e+000	1.100000e+000
2.000000000000000e-008	0.000000e+000	1.100000e+000	1.099999e+000	1.099999e+000
2.000100000000000e-008	1.100000e-001	1.100000e+000	1.106037e+000	1.102923e+000
2.000300000000000e-008	3.300000e-001	1.100000e+000	1.116296e+000	1.106947e+000
2.000600000000000e-008	6.600000e-001	1.100000e+000	1.126550e+000	1.110313e+000
2.001000000000000e-008	1.100000e+000	1.100000e+000	1.134392e+000	1.113410e+000
2.001040000000000e-008	1.100000e+000	1.100000e+000	1.132739e+000	1.111480e+000
2.001120000000000e-008	1.100000e+000	1.100000e+000	1.129550e+000	1.108114e+000
2.001280000000000e-008	1.100000e+000	1.100000e+000	1.124492e+000	1.103592e+000
2.001600000000000e-008	1.100000e+000	1.100000e+000	1.118233e+000	1.099778e+000
2.002239869064493e-008	1.100000e+000	1.100000e+000	1.111836e+000	1.098597e+000
2.003256365962693e-008	1.100000e+000	1.100000e+000	1.107041e+000	1.099252e+000
2.005289359759093e-008	1.100000e+000	1.100000e+000	1.103035e+000	1.099875e+000
2.009355347351893e-008	1.100000e+000	1.100000e+000	1.100622e+000	1.099996e+000
2.017487322537493e-008	1.100000e+000	1.100000e+000	1.099990e+000	1.099996e+000
2.033751272908692e-008	1.100000e+000	1.100000e+000	1.100000e+000	1.099995e+000
2.463438772908695e-008	1.100000e+000	1.100000e+000	1.099999e+000	1.099998e+000
2.482970022908695e-008	1.100000e+000	1.100000e+000	1.100000e+000	1.099995e+000
2.485970022908697e-008	1.100000e+000	1.100000e+000	1.099999e+000	1.099998e+000
2.492999999999997e-008	1.100000e+000	1.100000e+000	1.099999e+000	1.099998e+000
2.494940045817404e-008	1.100000e+000	1.100000e+000	1.099999e+000	1.099998e+000
2.497119908365186e-008	1.100000e+000	1.100000e+000	1.099999e+000	1.099998e+000
2.498119908365186e-008	1.100000e+000	1.100000e+000	1.099999e+000	1.099998e+000
2.498999999999999e-008	1.100000e+000	1.100000e+000	1.099999e+000	1.099998e+000
2.499239816730374e-008	1.100000e+000	1.100000e+000	1.099999e+000	1.099998e+000
2.499719450191122e-008	1.100000e+000	1.100000e+000	1.099999e+000	1.099998e+000
2.500357434225236e-008	1.100000e+000	1.100000e+000	1.099999e+000	1.099998e+000
2.500990836518699e-008	1.100000e+000	1.100000e+000	1.099999e+000	1.099998e+000
2.501000000000000e-008	1.100000e+000	1.100000e+000	1.100000e+000	1.099998e+000
2.501018326962602e-008	1.079840e+000	1.100000e+000	1.098950e+000	1.098908e+000
2.501054980887804e-008	1.039521e+000	1.100000e+000	1.096983e+000	1.096921e+000
2.501119365983239e-008	9.686974e-001	1.100000e+000	1.093938e+000	1.094125e+000
2.501248136174107e-008	8.270502e-001	1.100000e+000	1.088853e+000	1.090637e+000
2.501505676555843e-008	5.437558e-001	1.100000e+000	1.080366e+000	1.088374e+000
2.502000000000000e-008	0.000000e+000	1.100000e+000	1.065646e+000	1.089867e+000
2.502049432344416e-008	0.000000e+000	1.100000e+000	1.067914e+000	1.092107e+000
2.502148297033247e-008	0.000000e+000	1.100000e+000	1.071891e+000	1.095606e+000
2.502346026410910e-008	0.000000e+000	1.100000e+000	1.078001e+000	1.099574e+000
2.502741485166236e-008	0.000000e+000	1.100000e+000	1.086036e+000	1.102132e+000
2.503532402676887e-008	0.000000e+000	1.100000e+000	1.094237e+000	1.102025e+000
2.505114237698190e-008	0.000000e+000	1.100000e+000	1.099549e+000	1.100657e+000
2.508277907740796e-008	0.000000e+000	1.100000e+000	1.100738e+000	1.100023e+000
2.514605247826007e-008	0.000000e+000	1.100000e+000	1.100169e+000	1.099999e+000
2.527259927996430e-008	0.000000e+000	1.100000e+000	1.099990e+000	1.100000e+000
2.546791177996430e-008	0.000000e+000	1.100000e+000	1.100001e+000	1.100000e+000
2.566322427996431e-008	0.000000e+000	1.100000e+000	1.099999e+000	1.100000e+000
2.625486188282655e-008	0.000000e+000	1.100000e+000	1.099999e+000	1.100000e+000
2.684649948568879e-008	0.000000e+000	1.100000e+000	1.099999e+000	1.100000e+000
2.743813708855103e-008	0.000000e+000	1.100000e+000	1.100000e+000	1.100000e+000
2.802977469141328e-008	0.000000e+000	1.100000e+000	1.100000e+000	1.100000e+000
2.862141229427552e-008	0.000000e+000	1.100000e+000	1.100000e+000	1.100000e+000
2.921304989713776e-008	0.000000e+000	1.100000e+000	1.100000e+000	1.099999e+000
2.980468750000000e-008	0.000000e+000	1.100000e+000	1.099999e+000	1.099999e+000
2.989448894007133e-008	0.000000e+000	1.100000e+000	1.099999e+000	1.099998e+000
2.995448894007132e-008	0.000000e+000	1.100000e+000	1.100000e+000	1.100000e+000
