time	V(clk)	V(d)	V(q)
0.000000000000000e+000	0.000000e+000	0.000000e+000	5.253573e-008
1.953124992195698e-015	2.148437e-004	2.148437e-004	1.765245e-006
3.906249984391395e-015	4.296875e-004	4.296875e-004	3.145926e-006
7.812499968782791e-015	8.593750e-004	8.593750e-004	5.367890e-006
1.562499993756558e-014	1.718750e-003	1.718750e-003	9.369212e-006
3.124999987513116e-014	3.437500e-003	3.437500e-003	1.697726e-005
6.249999975026233e-014	6.875000e-003	6.875000e-003	3.166944e-005
1.249999995005247e-013	1.375000e-002	1.375000e-002	5.935107e-005
2.499999990010493e-013	2.750000e-002	2.750000e-002	1.084679e-004
4.999999980020986e-013	5.500000e-002	5.500000e-002	1.855451e-004
9.999999960041972e-013	1.100000e-001	1.100000e-001	2.784751e-004
1.999999992008394e-012	2.200000e-001	2.200000e-001	3.315299e-004
3.999999984016789e-012	4.400000e-001	4.400000e-001	2.363074e-004
6.000000015983211e-012	6.600000e-001	6.600000e-001	-1.620821e-005
9.999999999999999e-012	1.100000e+000	1.100000e+000	-7.281411e-004
1.039999999840168e-011	1.100000e+000	1.100000e+000	-8.573267e-004
1.119999999520504e-011	1.100000e+000	1.100000e+000	-9.792444e-004
1.279999998881175e-011	1.100000e+000	1.100000e+000	-8.909046e-004
1.599999997602518e-011	1.100000e+000	1.100000e+000	-4.854978e-004
2.239999995045204e-011	1.100000e+000	1.100000e+000	-1.931433e-005
3.519999989930577e-011	1.100000e+000	1.100000e+000	1.960674e-004
6.079999979701323e-011	1.100000e+000	1.100000e+000	1.481698e-004
9.114491223566782e-011	1.100000e+000	1.100000e+000	-4.544872e-005
1.192600023775162e-010	1.100000e+000	1.100000e+000	-9.973223e-005
1.561504640570858e-010	1.100000e+000	1.100000e+000	-1.607380e-005
2.068714450513159e-010	1.100000e+000	1.100000e+000	1.270868e-005
2.547042533903064e-010	1.100000e+000	1.100000e+000	-2.850539e-006
3.503594320898735e-010	1.100000e+000	1.100000e+000	1.445773e-006
5.104681303846200e-010	1.100000e+000	1.100000e+000	-2.493042e-007
7.057806303846200e-010	1.100000e+000	1.100000e+000	9.902215e-008
9.010931303846200e-010	1.100000e+000	1.100000e+000	-9.118594e-009
1.487030630384620e-009	1.100000e+000	1.100000e+000	7.227391e-008
4.612030630384617e-009	1.100000e+000	1.100000e+000	5.069342e-008
4.807343130384617e-009	1.100000e+000	1.100000e+000	-2.511331e-006
4.814687500000000e-009	1.100000e+000	1.100000e+000	-8.490818e-007
4.829376239230767e-009	1.100000e+000	1.100000e+000	1.286378e-006
4.858753717692300e-009	1.100000e+000	1.100000e+000	-6.998355e-007
4.917508674615366e-009	1.100000e+000	1.100000e+000	-3.578303e-006
4.927508674615366e-009	1.100000e+000	1.100000e+000	-2.166689e-006
4.947508674615365e-009	1.100000e+000	1.100000e+000	3.410632e-007
4.970000000000001e-009	1.100000e+000	1.100000e+000	2.122243e-006
4.980000000000001e-009	1.100000e+000	1.100000e+000	4.634062e-007
4.990000000000000e-009	1.100000e+000	1.100000e+000	-1.876438e-007
5.000000000000000e-009	1.100000e+000	1.100000e+000	3.324421e-007
5.010000000000000e-009	1.100000e+000	1.100000e+000	1.610822e-005
5.011000000000000e-009	9.900000e-001	1.100000e+000	-4.876633e-005
5.013000000000000e-009	7.700000e-001	1.100000e+000	-7.510969e-005
5.016000000000000e-009	4.400000e-001	1.100000e+000	4.719060e-005
5.020000000000000e-009	0.000000e+000	1.100000e+000	3.260297e-004
5.020400000000001e-009	0.000000e+000	1.100000e+000	3.952672e-004
5.021200000000001e-009	0.000000e+000	1.100000e+000	4.553115e-004
5.022800000000001e-009	0.000000e+000	1.100000e+000	3.969153e-004
5.026000000000000e-009	0.000000e+000	1.100000e+000	1.704799e-004
5.032399999999999e-009	0.000000e+000	1.100000e+000	-5.394358e-005
5.045199999999998e-009	0.000000e+000	1.100000e+000	-1.043990e-004
5.070799999999995e-009	0.000000e+000	1.100000e+000	-5.147967e-005
5.101659003492781e-009	0.000000e+000	1.100000e+000	3.696120e-005
5.132903899570826e-009	0.000000e+000	1.100000e+000	3.473418e-005
5.172500352234611e-009	0.000000e+000	1.100000e+000	-5.678279e-006
5.212753525685771e-009	0.000000e+000	1.100000e+000	8.146106e-007
5.260570037049953e-009	0.000000e+000	1.100000e+000	-5.109700e-006
5.313564652393564e-009	0.000000e+000	1.100000e+000	3.659416e-006
5.419553883080786e-009	0.000000e+000	1.100000e+000	-5.834037e-007
5.574384502497089e-009	0.000000e+000	1.100000e+000	1.495685e-007
5.769697002497089e-009	0.000000e+000	1.100000e+000	-1.248409e-007
5.965009502497088e-009	0.000000e+000	1.100000e+000	1.374174e-007
6.160322002497088e-009	0.000000e+000	1.100000e+000	-8.516145e-008
6.355634502497088e-009	0.000000e+000	1.100000e+000	1.266926e-007
6.550947002497088e-009	0.000000e+000	1.100000e+000	-4.962931e-008
6.746259502497088e-009	0.000000e+000	1.100000e+000	1.156659e-007
6.941572002497087e-009	0.000000e+000	1.100000e+000	-1.875742e-008
7.136884502497087e-009	0.000000e+000	1.100000e+000	1.046901e-007
7.332197002497087e-009	0.000000e+000	1.100000e+000	7.348717e-009
7.527509502497087e-009	0.000000e+000	1.100000e+000	9.409632e-008
7.722822002497087e-009	0.000000e+000	1.100000e+000	2.886736e-008
7.918134502497086e-009	0.000000e+000	1.100000e+000	8.415373e-008
8.113447002497086e-009	0.000000e+000	1.100000e+000	4.615504e-008
8.308759502497086e-009	0.000000e+000	1.100000e+000	7.505878e-008
8.504072002497086e-009	0.000000e+000	1.100000e+000	5.967740e-008
8.699384502497085e-009	0.000000e+000	1.100000e+000	6.694609e-008
8.894697002497085e-009	0.000000e+000	1.100000e+000	6.996561e-008
9.090009502497085e-009	0.000000e+000	1.100000e+000	5.992842e-008
9.285322002497085e-009	0.000000e+000	1.100000e+000	7.747803e-008
9.480634502497085e-009	0.000000e+000	1.100000e+000	5.384391e-008
9.675947002497084e-009	0.000000e+000	1.100000e+000	-9.706501e-007
9.804687500000000e-009	0.000000e+000	1.100000e+000	2.923344e-005
9.814687500000000e-009	0.000000e+000	1.100000e+000	1.819583e-005
9.834687500000000e-009	0.000000e+000	1.100000e+000	-4.859327e-006
9.874687499999999e-009	0.000000e+000	1.100000e+000	6.980590e-007
9.920000000000002e-009	0.000000e+000	1.100000e+000	4.961510e-006
9.930000000000002e-009	0.000000e+000	1.100000e+000	3.872764e-006
9.950000000000001e-009	0.000000e+000	1.100000e+000	7.705182e-007
9.960000000000001e-009	0.000000e+000	1.100000e+000	1.112528e-006
9.980000000000001e-009	0.000000e+000	1.100000e+000	2.985284e-007
9.990000000000001e-009	0.000000e+000	1.100000e+000	2.293657e-007
1.000000000000000e-008	0.000000e+000	1.100000e+000	9.563912e-007
1.000100000000000e-008	1.100000e-001	1.100000e+000	1.233187e-004
1.000300000000000e-008	3.300000e-001	1.100000e+000	1.836766e-004
1.000600000000000e-008	6.600000e-001	1.100000e+000	-2.198345e-005
1.001000000000000e-008	1.100000e+000	1.100000e+000	-5.091187e-004
1.001040000000000e-008	1.100000e+000	1.100000e+000	-6.048701e-004
1.001120000000000e-008	1.100000e+000	1.100000e+000	-6.933508e-004
1.001280000000000e-008	1.100000e+000	1.100000e+000	-6.271543e-004
1.001600000000000e-008	1.100000e+000	1.100000e+000	-3.363248e-004
1.002240000000000e-008	1.100000e+000	1.100000e+000	-1.015545e-005
1.003520000000000e-008	1.100000e+000	1.100000e+000	1.328963e-004
1.006080000000000e-008	1.100000e+000	1.100000e+000	2.078132e-004
1.011199999999999e-008	1.100000e+000	1.100000e+000	-4.892142e-003
1.015250190771089e-008	1.100000e+000	1.100000e+000	2.232223e-001
1.019838013541873e-008	1.100000e+000	1.100000e+000	7.619488e-001
1.024993475169388e-008	1.100000e+000	1.100000e+000	1.086208e+000
1.030344837416598e-008	1.100000e+000	1.100000e+000	1.098169e+000
1.037023267261117e-008	1.100000e+000	1.100000e+000	1.097556e+000
1.044176709923248e-008	1.100000e+000	1.100000e+000	1.099991e+000
1.058483595247512e-008	1.100000e+000	1.100000e+000	1.098716e+000
1.078014845247511e-008	1.100000e+000	1.100000e+000	1.099215e+000
1.097546095247511e-008	1.100000e+000	1.100000e+000	1.099314e+000
1.117077345247511e-008	1.100000e+000	1.100000e+000	1.099406e+000
1.136608595247511e-008	1.100000e+000	1.100000e+000	1.099429e+000
1.156139845247511e-008	1.100000e+000	1.100000e+000	1.099516e+000
1.175671095247511e-008	1.100000e+000	1.100000e+000	1.099533e+000
1.195202345247511e-008	1.100000e+000	1.100000e+000	1.099605e+000
1.214733595247511e-008	1.100000e+000	1.100000e+000	1.099618e+000
1.234264845247511e-008	1.100000e+000	1.100000e+000	1.099676e+000
1.253796095247511e-008	1.100000e+000	1.100000e+000	1.099686e+000
1.273327345247511e-008	1.100000e+000	1.100000e+000	1.099734e+000
1.292858595247511e-008	1.100000e+000	1.100000e+000	1.099740e+000
1.312389845247511e-008	1.100000e+000	1.100000e+000	1.099781e+000
1.331921095247511e-008	1.100000e+000	1.100000e+000	1.099784e+000
1.351452345247511e-008	1.100000e+000	1.100000e+000	1.099818e+000
1.370983595247511e-008	1.100000e+000	1.100000e+000	1.099819e+000
1.390514845247511e-008	1.100000e+000	1.100000e+000	1.099848e+000
1.410046095247511e-008	1.100000e+000	1.100000e+000	1.099848e+000
1.429577345247511e-008	1.100000e+000	1.100000e+000	1.099873e+000
1.449108595247511e-008	1.100000e+000	1.100000e+000	1.099872e+000
1.468639845247511e-008	1.100000e+000	1.100000e+000	1.099759e+000
1.481468750000000e-008	1.100000e+000	1.100000e+000	1.103089e+000
1.482468750000000e-008	1.100000e+000	1.100000e+000	1.101908e+000
1.484468750000001e-008	1.100000e+000	1.100000e+000	1.099442e+000
1.488468750000002e-008	1.100000e+000	1.100000e+000	1.100056e+000
1.492999999999998e-008	1.100000e+000	1.100000e+000	1.100610e+000
1.493999999999998e-008	1.100000e+000	1.100000e+000	1.100456e+000
1.495999999999999e-008	1.100000e+000	1.100000e+000	1.100103e+000
1.496999999999999e-008	1.100000e+000	1.100000e+000	1.100157e+000
1.498999999999999e-008	1.100000e+000	1.100000e+000	1.100035e+000
1.500000000000000e-008	1.100000e+000	1.100000e+000	1.100022e+000
1.501000000000000e-008	1.100000e+000	1.100000e+000	1.100082e+000
1.501100000000000e-008	9.900000e-001	1.100000e+000	1.099991e+000
1.501300000000000e-008	7.700000e-001	1.100000e+000	1.099929e+000
1.501600000000000e-008	4.400000e-001	1.100000e+000	1.100056e+000
1.502000000000000e-008	0.000000e+000	1.100000e+000	1.100446e+000
1.502040000000000e-008	0.000000e+000	1.100000e+000	1.100559e+000
1.502120000000000e-008	0.000000e+000	1.100000e+000	1.100667e+000
1.502280000000000e-008	0.000000e+000	1.100000e+000	1.100603e+000
1.502600000000001e-008	0.000000e+000	1.100000e+000	1.100285e+000
1.503240000000001e-008	0.000000e+000	1.100000e+000	1.099962e+000
1.504520000000002e-008	0.000000e+000	1.100000e+000	1.099874e+000
1.507080000000004e-008	0.000000e+000	1.100000e+000	1.099908e+000
1.510736343532364e-008	0.000000e+000	1.100000e+000	1.100024e+000
1.514382581762435e-008	0.000000e+000	1.100000e+000	1.100056e+000
1.518424412586058e-008	0.000000e+000	1.100000e+000	1.099993e+000
1.523875138895302e-008	0.000000e+000	1.100000e+000	1.099993e+000
1.529805065382209e-008	0.000000e+000	1.100000e+000	1.100008e+000
1.541664918356025e-008	0.000000e+000	1.100000e+000	1.099997e+000
1.561196168356025e-008	0.000000e+000	1.100000e+000	1.100000e+000
1.580727418356025e-008	0.000000e+000	1.100000e+000	1.100000e+000
1.600258668356026e-008	0.000000e+000	1.100000e+000	1.100000e+000
1.619789918356026e-008	0.000000e+000	1.100000e+000	1.100000e+000
1.639321168356026e-008	0.000000e+000	1.100000e+000	1.100000e+000
1.658852418356026e-008	0.000000e+000	1.100000e+000	1.100000e+000
1.678383668356026e-008	0.000000e+000	1.100000e+000	1.100000e+000
1.697914918356026e-008	0.000000e+000	1.100000e+000	1.100000e+000
1.717446168356026e-008	0.000000e+000	1.100000e+000	1.100000e+000
1.736977418356027e-008	0.000000e+000	1.100000e+000	1.100000e+000
1.756508668356027e-008	0.000000e+000	1.100000e+000	1.100000e+000
1.784410454070313e-008	0.000000e+000	1.100000e+000	1.100000e+000
1.812312239784598e-008	0.000000e+000	1.100000e+000	1.100000e+000
1.840214025498885e-008	0.000000e+000	1.100000e+000	1.100000e+000
1.868115811213171e-008	0.000000e+000	1.100000e+000	1.100000e+000
1.896017596927456e-008	0.000000e+000	1.100000e+000	1.100000e+000
1.923919382641742e-008	0.000000e+000	1.100000e+000	1.100000e+000
1.951821168356028e-008	0.000000e+000	1.100000e+000	1.100000e+000
1.971352418356028e-008	0.000000e+000	1.100000e+000	1.100000e+000
1.980468750000000e-008	0.000000e+000	1.100000e+000	1.100004e+000
1.981767336712057e-008	0.000000e+000	1.100000e+000	1.100003e+000
1.984364510136171e-008	0.000000e+000	1.100000e+000	1.099999e+000
1.989558856984398e-008	0.000000e+000	1.100000e+000	1.099993e+000
1.989716204941840e-008	0.000000e+000	1.100000e+000	1.099995e+000
1.989926002218429e-008	0.000000e+000	1.100000e+000	1.099998e+000
1.990345596771608e-008	0.000000e+000	1.100000e+000	1.099999e+000
1.999120317935569e-008	0.000000e+000	1.100000e+000	1.100000e+000
2.000000000000000e-008	0.000000e+000	1.100000e+000	1.100000e+000
2.000087968206443e-008	9.676503e-002	1.100000e+000	1.100134e+000
2.000263904619329e-008	2.902951e-001	1.100000e+000	1.100202e+000
2.000615777445102e-008	6.773552e-001	1.100000e+000	1.099962e+000
2.001000000000000e-008	1.100000e+000	1.100000e+000	1.099530e+000
2.001038422255490e-008	1.100000e+000	1.100000e+000	1.099460e+000
2.001115266766470e-008	1.100000e+000	1.100000e+000	1.099390e+000
2.001268955788429e-008	1.100000e+000	1.100000e+000	1.099428e+000
2.001576333832348e-008	1.100000e+000	1.100000e+000	1.099669e+000
2.002191089920186e-008	1.100000e+000	1.100000e+000	1.099983e+000
2.003420602095862e-008	1.100000e+000	1.100000e+000	1.100125e+000
2.005879626447212e-008	1.100000e+000	1.100000e+000	1.100099e+000
2.009957916651024e-008	1.100000e+000	1.100000e+000	1.099951e+000
2.013607564747949e-008	1.100000e+000	1.100000e+000	1.099946e+000
2.017988561832261e-008	1.100000e+000	1.100000e+000	1.100024e+000
2.023233315277699e-008	1.100000e+000	1.100000e+000	1.100000e+000
2.029100794297434e-008	1.100000e+000	1.100000e+000	1.099993e+000
2.040835752336906e-008	1.100000e+000	1.100000e+000	1.100003e+000
2.060367002336906e-008	1.100000e+000	1.100000e+000	1.100000e+000
2.079898252336906e-008	1.100000e+000	1.100000e+000	1.100000e+000
2.099429502336906e-008	1.100000e+000	1.100000e+000	1.100000e+000
2.118960752336906e-008	1.100000e+000	1.100000e+000	1.100000e+000
2.138492002336906e-008	1.100000e+000	1.100000e+000	1.100000e+000
2.158023252336907e-008	1.100000e+000	1.100000e+000	1.100000e+000
2.177554502336907e-008	1.100000e+000	1.100000e+000	1.100000e+000
2.197085752336907e-008	1.100000e+000	1.100000e+000	1.100000e+000
2.216617002336907e-008	1.100000e+000	1.100000e+000	1.100000e+000
2.236148252336907e-008	1.100000e+000	1.100000e+000	1.100000e+000
2.255679502336907e-008	1.100000e+000	1.100000e+000	1.100000e+000
2.275210752336907e-008	1.100000e+000	1.100000e+000	1.100000e+000
2.294742002336908e-008	1.100000e+000	1.100000e+000	1.100000e+000
2.450992002336909e-008	1.100000e+000	1.100000e+000	1.100000e+000
2.470523252336909e-008	1.100000e+000	1.100000e+000	1.099999e+000
2.481468750000000e-008	1.100000e+000	1.100000e+000	1.100010e+000
2.482468750000000e-008	1.100000e+000	1.100000e+000	1.100007e+000
2.484468750000001e-008	1.100000e+000	1.100000e+000	1.099999e+000
2.488468750000003e-008	1.100000e+000	1.100000e+000	1.100000e+000
2.492999999999997e-008	1.100000e+000	1.100000e+000	1.100001e+000
2.493999999999997e-008	1.100000e+000	1.100000e+000	1.100001e+000
2.495999999999998e-008	1.100000e+000	1.100000e+000	1.100000e+000
2.496999999999999e-008	1.100000e+000	1.100000e+000	1.100000e+000
2.500000000000000e-008	1.100000e+000	1.100000e+000	1.100000e+000
2.501000000000000e-008	1.100000e+000	1.100000e+000	1.100000e+000
2.501100000000000e-008	9.900000e-001	1.100000e+000	1.099940e+000
2.501300000000000e-008	7.700000e-001	1.100000e+000	1.099908e+000
2.501600000000000e-008	4.400000e-001	1.100000e+000	1.100051e+000
2.502000000000000e-008	0.000000e+000	1.100000e+000	1.100446e+000
2.502040000000000e-008	0.000000e+000	1.100000e+000	1.100559e+000
2.502120000000000e-008	0.000000e+000	1.100000e+000	1.100667e+000
2.502280000000000e-008	0.000000e+000	1.100000e+000	1.100603e+000
2.502600000000000e-008	0.000000e+000	1.100000e+000	1.100285e+000
2.503239999999999e-008	0.000000e+000	1.100000e+000	1.099962e+000
2.504519999999999e-008	0.000000e+000	1.100000e+000	1.099874e+000
2.507079999999998e-008	0.000000e+000	1.100000e+000	1.099908e+000
2.510736342440715e-008	0.000000e+000	1.100000e+000	1.100024e+000
2.514382579769241e-008	0.000000e+000	1.100000e+000	1.100056e+000
2.518424410242485e-008	0.000000e+000	1.100000e+000	1.099993e+000
2.523875135268266e-008	0.000000e+000	1.100000e+000	1.099993e+000
2.529805060383408e-008	0.000000e+000	1.100000e+000	1.100008e+000
2.541664910613691e-008	0.000000e+000	1.100000e+000	1.099997e+000
2.561196160613691e-008	0.000000e+000	1.100000e+000	1.100000e+000
2.580727410613691e-008	0.000000e+000	1.100000e+000	1.100000e+000
2.600258660613691e-008	0.000000e+000	1.100000e+000	1.100000e+000
2.619789910613692e-008	0.000000e+000	1.100000e+000	1.100000e+000
2.639321160613692e-008	0.000000e+000	1.100000e+000	1.100000e+000
2.658852410613692e-008	0.000000e+000	1.100000e+000	1.100000e+000
2.678383660613692e-008	0.000000e+000	1.100000e+000	1.100000e+000
2.697914910613692e-008	0.000000e+000	1.100000e+000	1.100000e+000
2.717446160613692e-008	0.000000e+000	1.100000e+000	1.100000e+000
2.736977410613692e-008	0.000000e+000	1.100000e+000	1.100000e+000
2.756508660613693e-008	0.000000e+000	1.100000e+000	1.100000e+000
2.784410446327979e-008	0.000000e+000	1.100000e+000	1.100000e+000
2.812312232042264e-008	0.000000e+000	1.100000e+000	1.100000e+000
2.840214017756551e-008	0.000000e+000	1.100000e+000	1.100000e+000
2.868115803470836e-008	0.000000e+000	1.100000e+000	1.100000e+000
2.896017589185122e-008	0.000000e+000	1.100000e+000	1.100000e+000
2.923919374899408e-008	0.000000e+000	1.100000e+000	1.100000e+000
2.951821160613694e-008	0.000000e+000	1.100000e+000	1.100000e+000
2.971352410613694e-008	0.000000e+000	1.100000e+000	1.100000e+000
2.980468750000000e-008	0.000000e+000	1.100000e+000	1.100004e+000
2.981767321227388e-008	0.000000e+000	1.100000e+000	1.100003e+000
2.984364463682166e-008	0.000000e+000	1.100000e+000	1.099999e+000
2.989558748591720e-008	0.000000e+000	1.100000e+000	1.099993e+000
2.989716793359233e-008	0.000000e+000	1.100000e+000	1.099995e+000
2.989927519715915e-008	0.000000e+000	1.100000e+000	1.099998e+000
2.990348972429281e-008	0.000000e+000	1.100000e+000	1.099999e+000
2.999002758334402e-008	0.000000e+000	1.100000e+000	1.100000e+000
3.000000000000000e-008	0.000000e+000	1.100000e+000	1.100000e+000
3.000099724166560e-008	1.096966e-001	1.100000e+000	1.100136e+000
3.000299172499680e-008	3.290898e-001	1.100000e+000	1.100197e+000
3.000601103333761e-008	6.612137e-001	1.100000e+000	1.099984e+000
3.001000000000000e-008	1.100000e+000	1.100000e+000	1.099529e+000
3.001039889666624e-008	1.100000e+000	1.100000e+000	1.099458e+000
3.001119668999872e-008	1.100000e+000	1.100000e+000	1.099388e+000
3.001279227666368e-008	1.100000e+000	1.100000e+000	1.099434e+000
3.001598344999360e-008	1.100000e+000	1.100000e+000	1.099685e+000
3.002236579665343e-008	1.100000e+000	1.100000e+000	1.099996e+000
3.003513048997310e-008	1.100000e+000	1.100000e+000	1.100126e+000
3.006065987661243e-008	1.100000e+000	1.100000e+000	1.100095e+000
3.010093116652730e-008	1.100000e+000	1.100000e+000	1.099947e+000
3.013743579016398e-008	1.100000e+000	1.100000e+000	1.099948e+000
3.018118315133754e-008	1.100000e+000	1.100000e+000	1.100025e+000
3.023457666562837e-008	1.100000e+000	1.100000e+000	1.099999e+000
3.029411085604969e-008	1.100000e+000	1.100000e+000	1.099994e+000
3.041317923689232e-008	1.100000e+000	1.100000e+000	1.100003e+000
3.060849173689232e-008	1.100000e+000	1.100000e+000	1.100000e+000
3.080380423689232e-008	1.100000e+000	1.100000e+000	1.100000e+000
3.099911673689232e-008	1.100000e+000	1.100000e+000	1.100000e+000
3.119442923689231e-008	1.100000e+000	1.100000e+000	1.100000e+000
3.138974173689231e-008	1.100000e+000	1.100000e+000	1.100000e+000
3.158505423689231e-008	1.100000e+000	1.100000e+000	1.100000e+000
